
T34E8 065:471 SEGGER J-Link V4.60a Log File (0012ms, 0013ms total)
T34E8 065:471 DLL Compiled: Jan 16 2013 17:15:30 (0012ms, 0013ms total)
T34E8 065:471 Logging started @ 2021-06-08 10:42 (0012ms, 0013ms total)
T34E8 065:483 JLINK_SetWarnOutHandler(...) (0000ms, 0013ms total)
T34E8 065:483 JLINK_OpenEx(...)
Firmware: J-Link OB-STM32F072-CortexM compiled Jan  7 2019 14:09:37
Hardware: V1.00
Feature(s): GDB, RDI, FlashBP, FlashDL, JFlash, RDDI  returns O.K. (0026ms, 0039ms total)
T34E8 065:509 JLINK_GetEmuCaps()  returns 0xB8EA5A33 (0000ms, 0039ms total)
T34E8 065:509 JLINK_TIF_GetAvailable(...) (0000ms, 0039ms total)
T34E8 065:509 JLINK_SetErrorOutHandler(...) (0000ms, 0039ms total)
T34E8 065:509 JLINK_ExecCommand("ProjectFile = "E:\Leoric\Embedded system\STM32F4\USER\Class1\JLinkSettings.ini"", ...)
                JLINK_AddMirrorAreaEx(Addr = 0x00000000, Size = 0x00000000) (0000ms, 0000ms total)
              Device "UNSPECIFIED" selected (0 KB flash, 0 KB RAM).  returns 0x00 (0081ms, 0120ms total)
T34E8 065:599 JLINK_ExecCommand("Device = STM32F407ZETx", ...)
                JLINK_AddMirrorAreaEx(Addr = 0x00000000, Size = 0x00000000) (0000ms, 0000ms total)
              Device "UNSPECIFIED" selected (0 KB flash, 0 KB RAM).  returns 0x00 (0003ms, 0123ms total)
T34E8 065:602 JLINK_ExecCommand("DisableConnectionTimeout", ...)  returns 0x00 (0000ms, 0123ms total)
T34E8 065:602 JLINK_GetHardwareVersion()  returns 0x2710 (0000ms, 0123ms total)
T34E8 065:602 JLINK_GetDLLVersion()  returns 46001 (0000ms, 0123ms total)
T34E8 065:602 JLINK_GetFirmwareString(...) (0000ms, 0123ms total)
T34E8 065:613 JLINK_GetDLLVersion()  returns 46001 (0000ms, 0123ms total)
T34E8 065:613 JLINK_GetCompileDateTime() (0000ms, 0123ms total)
T34E8 065:621 JLINK_GetFirmwareString(...) (0000ms, 0123ms total)
T34E8 065:623 JLINK_GetHardwareVersion()  returns 0x2710 (0000ms, 0123ms total)
T34E8 065:631 JLINK_TIF_Select(JLINKARM_TIF_SWD)  returns 0x00 (0000ms, 0123ms total)
T34E8 065:631 JLINK_SetSpeed(20000) (0000ms, 0123ms total)
T34E8 065:631 JLINK_GetId() >0x108 TIF>Found SWD-DP with ID 0x2BA01477 >0x0D TIF> >0x21 TIF> >0x0D TIF> >0x28 TIF> >0x0D TIF> >0x28 TIF> >0x0D TIF> >0x21 TIF> >0x0D TIF> >0x21 TIF> >0x0D TIF> >0x28 TIF> >0x0D TIF> >0x21 TIF> >0x0D TIF> >0x21 TIF> >0x0D TIF> >0x21 TIF> >0x0D TIF> >0x21 TIF> >0x0D TIF> >0x21 TIF> >0x0D TIF> >0x28 TIF> >0x0D TIF> >0x28 TIF> >0x0D TIF> >0x21 TIF> >0x0D TIF> >0x21 TIF> >0x0D TIF> >0x28 TIF> >0x0D TIF> >0x21 TIF> >0x0D TIF> >0x21 TIF> >0x0D TIF> >0x28 TIF> >0x0D TIF>
 >0x28 TIF> >0x0D TIF> >0x28 TIF> >0x0D TIF> >0x21 TIF> >0x0D TIF> >0x21 TIF> >0x0D TIF> >0x28 TIF> >0x0D TIF> >0x28 TIF> >0x0D TIF> >0x28 TIF> >0x0D TIF> >0x28 TIF> >0x0D TIF> >0x28 TIF> >0x0D TIF> >0x21 TIF> >0x0D TIF> >0x21 TIF> >0x0D TIF> >0x21 TIF>TPIU fitted.ETM fitted. >0x0D TIF> >0x28 TIF> >0x0D TIF> >0x21 TIF> >0x0D TIF> >0x21 TIF> >0x0D TIF> >0x28 TIF> >0x0D TIF> >0x21 TIF> >0x0D TIF> >0x21 TIF>FPUnit: 6 code (BP) slots and 2 literal slots >0x0D TIF> >0x28 TIF> >0x0D TIF> >0x21 TIF> >0x0D TIF>
 >0x21 TIF> >0x0D TIF> >0x28 TIF> >0x0D TIF> >0x21 TIF> >0x0D TIF> >0x21 TIF> >0x0D TIF> >0x28 TIF> >0x0D TIF> >0x21 TIF> >0x0D TIF> >0x21 TIF> >0x0D TIF> >0x28 TIF> >0x0D TIF> >0x21 TIF> >0x0D TIF> >0x21 TIF>Found Cortex-M4 r0p1, Little endian. >0x0D TIF> >0x21 TIF>  returns 0x2BA01477 (0055ms, 0178ms total)
T34E8 065:686 JLINK_GetDLLVersion()  returns 46001 (0000ms, 0178ms total)
T34E8 065:686 JLINK_CORE_GetFound()  returns 0xE0000FF (0000ms, 0178ms total)
T34E8 065:692 JLINK_GetDebugInfo(0x100) -- Value=0xE00FF003  returns 0x00 (0000ms, 0178ms total)
T34E8 065:692 JLINK_GetDebugInfo(0x101)  returns 0xFFFFFFFF (0000ms, 0178ms total)
T34E8 065:692 JLINK_ReadMemEx(0xE0041FF0, 0x0010 Bytes, ..., AccessWidth = 33554436) -- CPU is running -- CPU_ReadMem(16 bytes @ 0xE0041FF0) -- Data:  0D 00 00 00 90 00 00 00 05 00 00 00 B1 00 00 00  returns 0x10 (0001ms, 0179ms total)
T34E8 065:693 JLINK_ReadMemEx(0xE0041FD0, 0x0020 Bytes, ..., AccessWidth = 33554436) -- CPU is running -- CPU_ReadMem(32 bytes @ 0xE0041FD0) -- Data:  04 00 00 00 00 00 00 00 00 00 00 00 00 00 00 00 ...  returns 0x20 (0001ms, 0180ms total)
T34E8 065:694 JLINK_GetDebugInfo(0x102)  returns 0xFFFFFFFF (0000ms, 0180ms total)
T34E8 065:694 JLINK_GetDebugInfo(0x103)  returns 0xFFFFFFFF (0000ms, 0180ms total)
T34E8 065:694 JLINK_ReadMemEx(0xE0040FF0, 0x0010 Bytes, ..., AccessWidth = 33554436) -- CPU is running -- CPU_ReadMem(16 bytes @ 0xE0040FF0) -- Data:  0D 00 00 00 90 00 00 00 05 00 00 00 B1 00 00 00  returns 0x10 (0001ms, 0181ms total)
T34E8 065:695 JLINK_GetDebugInfo(0x104)  returns 0xFFFFFFFF (0000ms, 0181ms total)
T34E8 065:695 JLINK_GetDebugInfo(0x105)  returns 0xFFFFFFFF (0000ms, 0181ms total)
T34E8 065:695 JLINK_GetDebugInfo(0x106)  returns 0xFFFFFFFF (0000ms, 0181ms total)
T34E8 065:695 JLINK_GetDebugInfo(0x107)  returns 0xFFFFFFFF (0000ms, 0181ms total)
T34E8 065:695 JLINK_GetDebugInfo(0x10C)  returns 0xFFFFFFFF (0000ms, 0181ms total)
T34E8 065:695 JLINK_GetDebugInfo(0x01)  returns 0xFFFFFFFF (0000ms, 0181ms total)
T34E8 065:695 JLINK_GetDeviceFamily()  returns 14 (0000ms, 0181ms total)
T34E8 065:695 JLINK_ReadMemU32(0xE000ED00, 0x0001 Items, ...) -- CPU is running -- CPU_ReadMem(4 bytes @ 0xE000ED00) -- Data:  41 C2 0F 41  returns 0x01 (0000ms, 0181ms total)
T34E8 065:696 JLINK_GetDebugInfo(0x10F)  returns 0xFFFFFFFF (0000ms, 0181ms total)
T34E8 065:696 JLINK_SetResetType(JLINKARM_RESET_TYPE_NORMAL)  returns JLINKARM_RESET_TYPE_NORMAL (0000ms, 0181ms total)
T34E8 065:696 JLINK_Reset() -- CPU is running -- CPU_WriteMem(4 bytes @ 0xE000EDF0) -- CPU is running -- CPU_WriteMem(4 bytes @ 0xE000EDFC) >0x35 TIF> -- CPU is running -- CPU_WriteMem(4 bytes @ 0xE000ED0C) -- CPU is running -- CPU_ReadMem(4 bytes @ 0xE000EDF0) -- CPU is running -- CPU_ReadMem(4 bytes @ 0xE000EDF0) -- CPU is running -- CPU_WriteMem(4 bytes @ 0xE000EDF0) -- CPU is running -- CPU_WriteMem(4 bytes @ 0xE000EDFC) -- CPU is running -- CPU_ReadMem(4 bytes @ 0xE000EDF0)
 -- CPU_WriteMem(4 bytes @ 0xE0002000) (0020ms, 0201ms total)
T34E8 065:716 JLINK_Halt()  returns 0x00 (0000ms, 0201ms total)
T34E8 065:716 JLINK_ReadMemU32(0xE000EDF0, 0x0001 Items, ...) -- CPU_ReadMem(4 bytes @ 0xE000EDF0) -- Data:  03 00 03 00  returns 0x01 (0000ms, 0201ms total)
T34E8 065:717 JLINK_WriteU32(0xE000EDF0, 0xA05F0003) -- CPU_WriteMem(4 bytes @ 0xE000EDF0)  returns 0x00 (0000ms, 0201ms total)
T34E8 065:717 JLINK_WriteU32(0xE000EDFC, 0x01000000) -- CPU_WriteMem(4 bytes @ 0xE000EDFC)  returns 0x00 (0001ms, 0202ms total)
T34E8 065:744 JLINK_GetHWStatus(...)  returns 0x00 (0000ms, 0202ms total)
T34E8 065:763 JLINK_GetNumBPUnits(Type = 0xFFFFFF00)  returns 0x06 (0000ms, 0202ms total)
T34E8 065:763 JLINK_GetNumBPUnits(Type = 0xF0)  returns 0x2000 (0000ms, 0202ms total)
T34E8 065:763 JLINK_GetNumWPUnits()  returns 0x04 (0000ms, 0202ms total)
T34E8 065:777 JLINK_GetSpeed()  returns 0x7D0 (0000ms, 0202ms total)
T34E8 065:790 JLINK_ReadMemU32(0xE000E004, 0x0001 Items, ...) -- CPU_ReadMem(4 bytes @ 0xE000E004) -- Data:  02 00 00 00  returns 0x01 (0000ms, 0202ms total)
T34E8 065:790 JLINK_ReadMemU32(0xE000E004, 0x0001 Items, ...) -- CPU_ReadMem(4 bytes @ 0xE000E004) -- Data:  02 00 00 00  returns 0x01 (0001ms, 0203ms total)
T34E8 065:791 JLINK_WriteMemEx(0xE0001000, 0x001C Bytes, ..., AccessWidth = 33554436) -- Data:  01 00 00 00 00 00 00 00 00 00 00 00 00 00 00 00 ... -- CPU_WriteMem(28 bytes @ 0xE0001000)  returns 0x1C (0000ms, 0203ms total)
T34E8 065:791 JLINK_Halt()  returns 0x00 (0000ms, 0203ms total)
T34E8 065:791 JLINK_IsHalted()  returns TRUE (0000ms, 0203ms total)
T34E8 065:798 JLINK_WriteMem(0x20000000, 0x0188 Bytes, ...) -- Data:  00 BE 0A E0 0D 78 2D 06 68 40 08 24 40 00 00 D3 ... -- CPU_WriteMem(392 bytes @ 0x20000000)  returns 0x188 (0004ms, 0207ms total)
T34E8 065:802 JLINK_WriteReg(R0, 0x08000000)  returns 0x00 (0000ms, 0207ms total)
T34E8 065:802 JLINK_WriteReg(R1, 0x00B71B00)  returns 0x00 (0000ms, 0207ms total)
T34E8 065:802 JLINK_WriteReg(R2, 0x00000001)  returns 0x00 (0000ms, 0207ms total)
T34E8 065:802 JLINK_WriteReg(R3, 0x00000000)  returns 0x00 (0000ms, 0207ms total)
T34E8 065:802 JLINK_WriteReg(R4, 0x00000000)  returns 0x00 (0000ms, 0207ms total)
T34E8 065:802 JLINK_WriteReg(R5, 0x00000000)  returns 0x00 (0000ms, 0207ms total)
T34E8 065:802 JLINK_WriteReg(R6, 0x00000000)  returns 0x00 (0000ms, 0207ms total)
T34E8 065:802 JLINK_WriteReg(R7, 0x00000000)  returns 0x00 (0000ms, 0207ms total)
T34E8 065:802 JLINK_WriteReg(R8, 0x00000000)  returns 0x00 (0000ms, 0207ms total)
T34E8 065:802 JLINK_WriteReg(R9, 0x20000184)  returns 0x00 (0001ms, 0208ms total)
T34E8 065:803 JLINK_WriteReg(R10, 0x00000000)  returns 0x00 (0000ms, 0208ms total)
T34E8 065:803 JLINK_WriteReg(R11, 0x00000000)  returns 0x00 (0000ms, 0208ms total)
T34E8 065:803 JLINK_WriteReg(R12, 0x00000000)  returns 0x00 (0000ms, 0208ms total)
T34E8 065:803 JLINK_WriteReg(R13, 0x20001000)  returns 0x00 (0000ms, 0208ms total)
T34E8 065:803 JLINK_WriteReg(R14, 0x20000001)  returns 0x00 (0000ms, 0208ms total)
T34E8 065:803 JLINK_WriteReg(R15, 0x2000005E)  returns 0x00 (0000ms, 0208ms total)
T34E8 065:803 JLINK_WriteReg(XPSR, 0x01000000)  returns 0x00 (0000ms, 0208ms total)
T34E8 065:803 JLINK_WriteReg(MSP, 0x20001000)  returns 0x00 (0000ms, 0208ms total)
T34E8 065:803 JLINK_WriteReg(PSP, 0x20001000)  returns 0x00 (0000ms, 0208ms total)
T34E8 065:803 JLINK_WriteReg(CFBP, 0x00000000)  returns 0x00 (0000ms, 0208ms total)
T34E8 065:803 JLINK_SetBPEx(Addr = 0x20000000, Type = 0xFFFFFFF2) -- CPU_ReadMem(4 bytes @ 0x20000000) -- CPU_WriteMem(4 bytes @ 0x20000000) -- CPU_ReadMem(4 bytes @ 0x20000000) -- CPU_WriteMem(4 bytes @ 0x20000000) -- CPU_ReadMem(2 bytes @ 0x20000000)  returns 0x00000001 (0003ms, 0211ms total)
T34E8 065:806 JLINK_Go() -- CPU_WriteMem(2 bytes @ 0x20000000) -- CPU_WriteMem(4 bytes @ 0xE0002008) -- CPU_WriteMem(4 bytes @ 0xE000200C) -- CPU_WriteMem(4 bytes @ 0xE0002010) -- CPU_WriteMem(4 bytes @ 0xE0002014) -- CPU_WriteMem(4 bytes @ 0xE0002018) -- CPU_WriteMem(4 bytes @ 0xE000201C) (0006ms, 0217ms total)
T34E8 065:812 JLINK_IsHalted() -- CPU_ReadMem(2 bytes @ 0x20000000)  returns TRUE (0005ms, 0222ms total)
T34E8 065:817 JLINK_ReadReg(R15)  returns 0x20000000 (0000ms, 0217ms total)
T34E8 065:817 JLINK_ClrBPEx(BPHandle = 0x00000001)  returns 0x00 (0000ms, 0217ms total)
T34E8 065:817 JLINK_ReadReg(R0)  returns 0x00000000 (0000ms, 0217ms total)
T34E8 065:818 JLINK_WriteReg(R0, 0x08000000)  returns 0x00 (0000ms, 0217ms total)
T34E8 065:818 JLINK_WriteReg(R1, 0x00004000)  returns 0x00 (0000ms, 0217ms total)
T34E8 065:818 JLINK_WriteReg(R2, 0x000000FF)  returns 0x00 (0000ms, 0217ms total)
T34E8 065:818 JLINK_WriteReg(R3, 0x00000000)  returns 0x00 (0000ms, 0217ms total)
T34E8 065:818 JLINK_WriteReg(R4, 0x00000000)  returns 0x00 (0000ms, 0217ms total)
T34E8 065:818 JLINK_WriteReg(R5, 0x00000000)  returns 0x00 (0000ms, 0217ms total)
T34E8 065:818 JLINK_WriteReg(R6, 0x00000000)  returns 0x00 (0000ms, 0217ms total)
T34E8 065:818 JLINK_WriteReg(R7, 0x00000000)  returns 0x00 (0000ms, 0217ms total)
T34E8 065:818 JLINK_WriteReg(R8, 0x00000000)  returns 0x00 (0000ms, 0217ms total)
T34E8 065:818 JLINK_WriteReg(R9, 0x20000184)  returns 0x00 (0000ms, 0217ms total)
T34E8 065:818 JLINK_WriteReg(R10, 0x00000000)  returns 0x00 (0000ms, 0217ms total)
T34E8 065:818 JLINK_WriteReg(R11, 0x00000000)  returns 0x00 (0000ms, 0217ms total)
T34E8 065:818 JLINK_WriteReg(R12, 0x00000000)  returns 0x00 (0000ms, 0217ms total)
T34E8 065:818 JLINK_WriteReg(R13, 0x20001000)  returns 0x00 (0000ms, 0217ms total)
T34E8 065:818 JLINK_WriteReg(R14, 0x20000001)  returns 0x00 (0000ms, 0217ms total)
T34E8 065:818 JLINK_WriteReg(R15, 0x20000020)  returns 0x00 (0000ms, 0217ms total)
T34E8 065:818 JLINK_WriteReg(XPSR, 0x01000000)  returns 0x00 (0000ms, 0217ms total)
T34E8 065:818 JLINK_WriteReg(MSP, 0x20001000)  returns 0x00 (0000ms, 0217ms total)
T34E8 065:818 JLINK_WriteReg(PSP, 0x20001000)  returns 0x00 (0000ms, 0217ms total)
T34E8 065:818 JLINK_WriteReg(CFBP, 0x00000000)  returns 0x00 (0000ms, 0217ms total)
T34E8 065:818 JLINK_SetBPEx(Addr = 0x20000000, Type = 0xFFFFFFF2)  returns 0x00000002 (0000ms, 0217ms total)
T34E8 065:818 JLINK_Go() (0002ms, 0219ms total)
T34E8 065:820 JLINK_IsHalted() -- CPU_ReadMem(2 bytes @ 0x20000000)  returns TRUE (0005ms, 0224ms total)
T34E8 065:825 JLINK_ReadReg(R15)  returns 0x20000000 (0000ms, 0219ms total)
T34E8 065:825 JLINK_ClrBPEx(BPHandle = 0x00000002)  returns 0x00 (0000ms, 0219ms total)
T34E8 065:825 JLINK_ReadReg(R0)  returns 0x00000001 (0000ms, 0219ms total)
T34E8 065:825 JLINK_WriteReg(R0, 0x08000000)  returns 0x00 (0000ms, 0219ms total)
T34E8 065:825 JLINK_WriteReg(R1, 0x00004000)  returns 0x00 (0000ms, 0219ms total)
T34E8 065:825 JLINK_WriteReg(R2, 0x000000FF)  returns 0x00 (0000ms, 0219ms total)
T34E8 065:825 JLINK_WriteReg(R3, 0x00000000)  returns 0x00 (0000ms, 0219ms total)
T34E8 065:825 JLINK_WriteReg(R4, 0x00000000)  returns 0x00 (0000ms, 0219ms total)
T34E8 065:825 JLINK_WriteReg(R5, 0x00000000)  returns 0x00 (0000ms, 0219ms total)
T34E8 065:825 JLINK_WriteReg(R6, 0x00000000)  returns 0x00 (0000ms, 0219ms total)
T34E8 065:825 JLINK_WriteReg(R7, 0x00000000)  returns 0x00 (0000ms, 0219ms total)
T34E8 065:825 JLINK_WriteReg(R8, 0x00000000)  returns 0x00 (0000ms, 0219ms total)
T34E8 065:825 JLINK_WriteReg(R9, 0x20000184)  returns 0x00 (0000ms, 0219ms total)
T34E8 065:825 JLINK_WriteReg(R10, 0x00000000)  returns 0x00 (0000ms, 0219ms total)
T34E8 065:825 JLINK_WriteReg(R11, 0x00000000)  returns 0x00 (0000ms, 0219ms total)
T34E8 065:825 JLINK_WriteReg(R12, 0x00000000)  returns 0x00 (0000ms, 0219ms total)
T34E8 065:825 JLINK_WriteReg(R13, 0x20001000)  returns 0x00 (0000ms, 0219ms total)
T34E8 065:825 JLINK_WriteReg(R14, 0x20000001)  returns 0x00 (0001ms, 0220ms total)
T34E8 065:826 JLINK_WriteReg(R15, 0x200000C6)  returns 0x00 (0000ms, 0220ms total)
T34E8 065:826 JLINK_WriteReg(XPSR, 0x01000000)  returns 0x00 (0000ms, 0220ms total)
T34E8 065:826 JLINK_WriteReg(MSP, 0x20001000)  returns 0x00 (0000ms, 0220ms total)
T34E8 065:826 JLINK_WriteReg(PSP, 0x20001000)  returns 0x00 (0000ms, 0220ms total)
T34E8 065:826 JLINK_WriteReg(CFBP, 0x00000000)  returns 0x00 (0000ms, 0220ms total)
T34E8 065:826 JLINK_SetBPEx(Addr = 0x20000000, Type = 0xFFFFFFF2)  returns 0x00000003 (0000ms, 0220ms total)
T34E8 065:826 JLINK_Go() (0001ms, 0221ms total)
T34E8 065:827 JLINK_IsHalted()  returns FALSE (0001ms, 0222ms total)
T34E8 065:902 JLINK_IsHalted()  returns FALSE (0000ms, 0221ms total)
T34E8 065:904 JLINK_IsHalted()  returns FALSE (0000ms, 0221ms total)
T34E8 065:906 JLINK_IsHalted()  returns FALSE (0000ms, 0221ms total)
T34E8 065:908 JLINK_IsHalted()  returns FALSE (0000ms, 0221ms total)
T34E8 065:912 JLINK_IsHalted()  returns FALSE (0000ms, 0221ms total)
T34E8 065:914 JLINK_IsHalted()  returns FALSE (0000ms, 0221ms total)
T34E8 065:916 JLINK_IsHalted()  returns FALSE (0000ms, 0221ms total)
T34E8 065:918 JLINK_IsHalted()  returns FALSE (0000ms, 0221ms total)
T34E8 065:920 JLINK_IsHalted()  returns FALSE (0000ms, 0221ms total)
T34E8 065:922 JLINK_IsHalted()  returns FALSE (0000ms, 0221ms total)
T34E8 065:924 JLINK_IsHalted()  returns FALSE (0000ms, 0221ms total)
T34E8 065:928 JLINK_IsHalted()  returns FALSE (0000ms, 0221ms total)
T34E8 065:930 JLINK_IsHalted()  returns FALSE (0000ms, 0221ms total)
T34E8 065:932 JLINK_IsHalted()  returns FALSE (0000ms, 0221ms total)
T34E8 065:934 JLINK_IsHalted()  returns FALSE (0000ms, 0221ms total)
T34E8 065:936 JLINK_IsHalted()  returns FALSE (0000ms, 0221ms total)
T34E8 065:938 JLINK_IsHalted()  returns FALSE (0000ms, 0221ms total)
T34E8 065:950 JLINK_IsHalted()  returns FALSE (0000ms, 0221ms total)
T34E8 065:952 JLINK_IsHalted()  returns FALSE (0000ms, 0221ms total)
T34E8 065:954 JLINK_IsHalted()  returns FALSE (0000ms, 0221ms total)
T34E8 065:960 JLINK_IsHalted()  returns FALSE (0000ms, 0221ms total)
T34E8 065:962 JLINK_IsHalted()  returns FALSE (0000ms, 0221ms total)
T34E8 065:966 JLINK_IsHalted()  returns FALSE (0000ms, 0221ms total)
T34E8 065:968 JLINK_IsHalted()  returns FALSE (0000ms, 0221ms total)
T34E8 065:970 JLINK_IsHalted()  returns FALSE (0000ms, 0221ms total)
T34E8 065:978 JLINK_IsHalted()  returns FALSE (0000ms, 0221ms total)
T34E8 065:982 JLINK_IsHalted()  returns FALSE (0000ms, 0221ms total)
T34E8 065:984 JLINK_IsHalted()  returns FALSE (0000ms, 0221ms total)
T34E8 065:986 JLINK_IsHalted()  returns FALSE (0000ms, 0221ms total)
T34E8 065:991 JLINK_IsHalted()  returns FALSE (0000ms, 0221ms total)
T34E8 065:993 JLINK_IsHalted()  returns FALSE (0000ms, 0221ms total)
T34E8 065:997 JLINK_IsHalted()  returns FALSE (0000ms, 0221ms total)
T34E8 065:999 JLINK_IsHalted()  returns FALSE (0000ms, 0221ms total)
T34E8 066:001 JLINK_IsHalted()  returns FALSE (0000ms, 0221ms total)
T34E8 066:006 JLINK_IsHalted()  returns FALSE (0000ms, 0221ms total)
T34E8 066:008 JLINK_IsHalted()  returns FALSE (0000ms, 0221ms total)
T34E8 066:010 JLINK_IsHalted()  returns FALSE (0000ms, 0221ms total)
T34E8 066:014 JLINK_IsHalted()  returns FALSE (0000ms, 0221ms total)
T34E8 066:016 JLINK_IsHalted()  returns FALSE (0000ms, 0221ms total)
T34E8 066:018 JLINK_IsHalted()  returns FALSE (0000ms, 0221ms total)
T34E8 066:024 JLINK_IsHalted()  returns FALSE (0001ms, 0222ms total)
T34E8 066:027 JLINK_IsHalted()  returns FALSE (0001ms, 0222ms total)
T34E8 066:032 JLINK_IsHalted()  returns FALSE (0001ms, 0222ms total)
T34E8 066:035 JLINK_IsHalted()  returns FALSE (0000ms, 0221ms total)
T34E8 066:046 JLINK_IsHalted()  returns FALSE (0000ms, 0221ms total)
T34E8 066:048 JLINK_IsHalted()  returns FALSE (0001ms, 0222ms total)
T34E8 066:051 JLINK_IsHalted()  returns FALSE (0000ms, 0221ms total)
T34E8 066:057 JLINK_IsHalted()  returns FALSE (0000ms, 0221ms total)
T34E8 066:061 JLINK_IsHalted()  returns FALSE (0001ms, 0222ms total)
T34E8 066:064 JLINK_IsHalted()  returns FALSE (0001ms, 0222ms total)
T34E8 066:067 JLINK_IsHalted()  returns FALSE (0000ms, 0221ms total)
T34E8 066:072 JLINK_IsHalted()  returns FALSE (0000ms, 0221ms total)
T34E8 066:074 JLINK_IsHalted()  returns FALSE (0000ms, 0221ms total)
T34E8 066:078 JLINK_IsHalted()  returns FALSE (0000ms, 0221ms total)
T34E8 066:080 JLINK_IsHalted()  returns FALSE (0000ms, 0221ms total)
T34E8 066:082 JLINK_IsHalted()  returns FALSE (0000ms, 0221ms total)
T34E8 066:089 JLINK_IsHalted()  returns FALSE (0000ms, 0221ms total)
T34E8 066:093 JLINK_IsHalted()  returns FALSE (0000ms, 0221ms total)
T34E8 066:095 JLINK_IsHalted()  returns FALSE (0001ms, 0222ms total)
T34E8 066:098 JLINK_IsHalted()  returns FALSE (0000ms, 0221ms total)
T34E8 066:107 JLINK_IsHalted()  returns FALSE (0000ms, 0221ms total)
T34E8 066:111 JLINK_IsHalted()  returns FALSE (0000ms, 0221ms total)
T34E8 066:113 JLINK_IsHalted()  returns FALSE (0000ms, 0221ms total)
T34E8 066:115 JLINK_IsHalted()  returns FALSE (0000ms, 0221ms total)
T34E8 066:119 JLINK_IsHalted()  returns FALSE (0000ms, 0221ms total)
T34E8 066:122 JLINK_IsHalted()  returns FALSE (0000ms, 0221ms total)
T34E8 066:125 JLINK_IsHalted()  returns FALSE (0000ms, 0221ms total)
T34E8 066:127 JLINK_IsHalted()  returns FALSE (0000ms, 0221ms total)
T34E8 066:129 JLINK_IsHalted()  returns FALSE (0000ms, 0221ms total)
T34E8 066:130 JLINK_IsHalted()  returns FALSE (0000ms, 0221ms total)
T34E8 066:135 JLINK_IsHalted()  returns FALSE (0000ms, 0221ms total)
T34E8 066:138 JLINK_IsHalted()  returns FALSE (0000ms, 0221ms total)
T34E8 066:140 JLINK_IsHalted()  returns FALSE (0001ms, 0222ms total)
T34E8 066:143 JLINK_IsHalted()  returns FALSE (0001ms, 0222ms total)
T34E8 066:146 JLINK_IsHalted()  returns FALSE (0000ms, 0221ms total)
T34E8 066:150 JLINK_IsHalted()  returns FALSE (0000ms, 0221ms total)
T34E8 066:152 JLINK_IsHalted()  returns FALSE (0000ms, 0221ms total)
T34E8 066:154 JLINK_IsHalted()  returns FALSE (0001ms, 0222ms total)
T34E8 066:156 JLINK_IsHalted()  returns FALSE (0001ms, 0222ms total)
T34E8 066:158 JLINK_IsHalted()  returns FALSE (0001ms, 0222ms total)
T34E8 066:161 JLINK_IsHalted()  returns FALSE (0000ms, 0221ms total)
T34E8 066:171 JLINK_IsHalted()  returns FALSE (0000ms, 0221ms total)
T34E8 066:173 JLINK_IsHalted()  returns FALSE (0000ms, 0221ms total)
T34E8 066:175 JLINK_IsHalted()  returns FALSE (0001ms, 0222ms total)
T34E8 066:178 JLINK_IsHalted()  returns FALSE (0001ms, 0222ms total)
T34E8 066:183 JLINK_IsHalted()  returns FALSE (0000ms, 0221ms total)
T34E8 066:185 JLINK_IsHalted()  returns FALSE (0001ms, 0222ms total)
T34E8 066:187 JLINK_IsHalted()  returns FALSE (0001ms, 0222ms total)
T34E8 066:190 JLINK_IsHalted()  returns FALSE (0000ms, 0221ms total)
T34E8 066:192 JLINK_IsHalted()  returns FALSE (0001ms, 0222ms total)
T34E8 066:198 JLINK_IsHalted()  returns FALSE (0000ms, 0221ms total)
T34E8 066:200 JLINK_IsHalted()  returns FALSE (0001ms, 0222ms total)
T34E8 066:202 JLINK_IsHalted()  returns FALSE (0001ms, 0222ms total)
T34E8 066:204 JLINK_IsHalted()  returns FALSE (0000ms, 0221ms total)
T34E8 066:206 JLINK_IsHalted()  returns FALSE (0001ms, 0222ms total)
T34E8 066:208 JLINK_IsHalted()  returns FALSE (0000ms, 0221ms total)
T34E8 066:213 JLINK_IsHalted() -- CPU_ReadMem(2 bytes @ 0x20000000)  returns TRUE (0006ms, 0227ms total)
T34E8 066:219 JLINK_ReadReg(R15)  returns 0x20000000 (0000ms, 0221ms total)
T34E8 066:219 JLINK_ClrBPEx(BPHandle = 0x00000003)  returns 0x00 (0000ms, 0221ms total)
T34E8 066:219 JLINK_ReadReg(R0)  returns 0x00000000 (0000ms, 0221ms total)
T34E8 066:219 JLINK_WriteReg(R0, 0x00000001)  returns 0x00 (0001ms, 0222ms total)
T34E8 066:220 JLINK_WriteReg(R1, 0x00004000)  returns 0x00 (0000ms, 0222ms total)
T34E8 066:220 JLINK_WriteReg(R2, 0x000000FF)  returns 0x00 (0000ms, 0222ms total)
T34E8 066:220 JLINK_WriteReg(R3, 0x00000000)  returns 0x00 (0000ms, 0222ms total)
T34E8 066:220 JLINK_WriteReg(R4, 0x00000000)  returns 0x00 (0000ms, 0222ms total)
T34E8 066:220 JLINK_WriteReg(R5, 0x00000000)  returns 0x00 (0000ms, 0222ms total)
T34E8 066:220 JLINK_WriteReg(R6, 0x00000000)  returns 0x00 (0000ms, 0222ms total)
T34E8 066:220 JLINK_WriteReg(R7, 0x00000000)  returns 0x00 (0000ms, 0222ms total)
T34E8 066:220 JLINK_WriteReg(R8, 0x00000000)  returns 0x00 (0000ms, 0222ms total)
T34E8 066:220 JLINK_WriteReg(R9, 0x20000184)  returns 0x00 (0000ms, 0222ms total)
T34E8 066:220 JLINK_WriteReg(R10, 0x00000000)  returns 0x00 (0000ms, 0222ms total)
T34E8 066:220 JLINK_WriteReg(R11, 0x00000000)  returns 0x00 (0000ms, 0222ms total)
T34E8 066:220 JLINK_WriteReg(R12, 0x00000000)  returns 0x00 (0000ms, 0222ms total)
T34E8 066:220 JLINK_WriteReg(R13, 0x20001000)  returns 0x00 (0000ms, 0222ms total)
T34E8 066:220 JLINK_WriteReg(R14, 0x20000001)  returns 0x00 (0000ms, 0222ms total)
T34E8 066:220 JLINK_WriteReg(R15, 0x2000008C)  returns 0x00 (0000ms, 0222ms total)
T34E8 066:220 JLINK_WriteReg(XPSR, 0x01000000)  returns 0x00 (0000ms, 0222ms total)
T34E8 066:220 JLINK_WriteReg(MSP, 0x20001000)  returns 0x00 (0000ms, 0222ms total)
T34E8 066:220 JLINK_WriteReg(PSP, 0x20001000)  returns 0x00 (0000ms, 0222ms total)
T34E8 066:220 JLINK_WriteReg(CFBP, 0x00000000)  returns 0x00 (0000ms, 0222ms total)
T34E8 066:220 JLINK_SetBPEx(Addr = 0x20000000, Type = 0xFFFFFFF2)  returns 0x00000004 (0000ms, 0222ms total)
T34E8 066:220 JLINK_Go() (0002ms, 0224ms total)
T34E8 066:222 JLINK_IsHalted() -- CPU_ReadMem(2 bytes @ 0x20000000)  returns TRUE (0006ms, 0230ms total)
T34E8 066:228 JLINK_ReadReg(R15)  returns 0x20000000 (0000ms, 0224ms total)
T34E8 066:228 JLINK_ClrBPEx(BPHandle = 0x00000004)  returns 0x00 (0000ms, 0224ms total)
T34E8 066:228 JLINK_ReadReg(R0)  returns 0x00000000 (0000ms, 0224ms total)
T34E8 066:292 JLINK_WriteMem(0x20000000, 0x0188 Bytes, ...) -- Data:  00 BE 0A E0 0D 78 2D 06 68 40 08 24 40 00 00 D3 ... -- CPU_WriteMem(392 bytes @ 0x20000000)  returns 0x188 (0004ms, 0228ms total)
T34E8 066:296 JLINK_WriteReg(R0, 0x08000000)  returns 0x00 (0000ms, 0228ms total)
T34E8 066:296 JLINK_WriteReg(R1, 0x00B71B00)  returns 0x00 (0000ms, 0228ms total)
T34E8 066:296 JLINK_WriteReg(R2, 0x00000002)  returns 0x00 (0000ms, 0228ms total)
T34E8 066:296 JLINK_WriteReg(R3, 0x00000000)  returns 0x00 (0000ms, 0228ms total)
T34E8 066:296 JLINK_WriteReg(R4, 0x00000000)  returns 0x00 (0000ms, 0228ms total)
T34E8 066:296 JLINK_WriteReg(R5, 0x00000000)  returns 0x00 (0000ms, 0228ms total)
T34E8 066:296 JLINK_WriteReg(R6, 0x00000000)  returns 0x00 (0000ms, 0228ms total)
T34E8 066:296 JLINK_WriteReg(R7, 0x00000000)  returns 0x00 (0000ms, 0228ms total)
T34E8 066:296 JLINK_WriteReg(R8, 0x00000000)  returns 0x00 (0000ms, 0228ms total)
T34E8 066:296 JLINK_WriteReg(R9, 0x20000184)  returns 0x00 (0000ms, 0228ms total)
T34E8 066:296 JLINK_WriteReg(R10, 0x00000000)  returns 0x00 (0000ms, 0228ms total)
T34E8 066:296 JLINK_WriteReg(R11, 0x00000000)  returns 0x00 (0000ms, 0228ms total)
T34E8 066:296 JLINK_WriteReg(R12, 0x00000000)  returns 0x00 (0000ms, 0228ms total)
T34E8 066:296 JLINK_WriteReg(R13, 0x20001000)  returns 0x00 (0000ms, 0228ms total)
T34E8 066:296 JLINK_WriteReg(R14, 0x20000001)  returns 0x00 (0000ms, 0228ms total)
T34E8 066:296 JLINK_WriteReg(R15, 0x2000005E)  returns 0x00 (0000ms, 0228ms total)
T34E8 066:296 JLINK_WriteReg(XPSR, 0x01000000)  returns 0x00 (0000ms, 0228ms total)
T34E8 066:296 JLINK_WriteReg(MSP, 0x20001000)  returns 0x00 (0000ms, 0228ms total)
T34E8 066:296 JLINK_WriteReg(PSP, 0x20001000)  returns 0x00 (0000ms, 0228ms total)
T34E8 066:296 JLINK_WriteReg(CFBP, 0x00000000)  returns 0x00 (0000ms, 0228ms total)
T34E8 066:296 JLINK_SetBPEx(Addr = 0x20000000, Type = 0xFFFFFFF2) -- CPU_ReadMem(4 bytes @ 0x20000000) -- CPU_WriteMem(4 bytes @ 0x20000000) -- CPU_ReadMem(4 bytes @ 0x20000000) -- CPU_WriteMem(4 bytes @ 0x20000000) -- CPU_ReadMem(2 bytes @ 0x20000000)  returns 0x00000005 (0003ms, 0231ms total)
T34E8 066:299 JLINK_Go() -- CPU_WriteMem(2 bytes @ 0x20000000) (0003ms, 0234ms total)
T34E8 066:302 JLINK_IsHalted() -- CPU_ReadMem(2 bytes @ 0x20000000)  returns TRUE (0006ms, 0240ms total)
T34E8 066:308 JLINK_ReadReg(R15)  returns 0x20000000 (0000ms, 0234ms total)
T34E8 066:308 JLINK_ClrBPEx(BPHandle = 0x00000005)  returns 0x00 (0000ms, 0234ms total)
T34E8 066:308 JLINK_ReadReg(R0)  returns 0x00000000 (0000ms, 0234ms total)
T34E8 066:308 JLINK_WriteMem(0x20000188, 0x0278 Bytes, ...) -- Data:  F8 05 00 20 9D 01 00 08 E9 04 00 08 E1 04 00 08 ... -- CPU_WriteMem(632 bytes @ 0x20000188)  returns 0x278 (0007ms, 0241ms total)
T34E8 066:315 JLINK_WriteMem(0x20000400, 0x0188 Bytes, ...) -- Data:  E0 21 08 61 70 BD 00 00 00 00 00 20 E0 01 00 20 ... -- CPU_WriteMem(392 bytes @ 0x20000400)  returns 0x188 (0005ms, 0246ms total)
T34E8 066:320 JLINK_WriteReg(R0, 0x08000000)  returns 0x00 (0000ms, 0246ms total)
T34E8 066:320 JLINK_WriteReg(R1, 0x00000400)  returns 0x00 (0000ms, 0246ms total)
T34E8 066:320 JLINK_WriteReg(R2, 0x20000188)  returns 0x00 (0000ms, 0246ms total)
T34E8 066:320 JLINK_WriteReg(R3, 0x00000000)  returns 0x00 (0000ms, 0246ms total)
T34E8 066:320 JLINK_WriteReg(R4, 0x00000000)  returns 0x00 (0000ms, 0246ms total)
T34E8 066:320 JLINK_WriteReg(R5, 0x00000000)  returns 0x00 (0000ms, 0246ms total)
T34E8 066:320 JLINK_WriteReg(R6, 0x00000000)  returns 0x00 (0000ms, 0246ms total)
T34E8 066:320 JLINK_WriteReg(R7, 0x00000000)  returns 0x00 (0000ms, 0246ms total)
T34E8 066:320 JLINK_WriteReg(R8, 0x00000000)  returns 0x00 (0000ms, 0246ms total)
T34E8 066:320 JLINK_WriteReg(R9, 0x20000184)  returns 0x00 (0000ms, 0246ms total)
T34E8 066:320 JLINK_WriteReg(R10, 0x00000000)  returns 0x00 (0000ms, 0246ms total)
T34E8 066:320 JLINK_WriteReg(R11, 0x00000000)  returns 0x00 (0000ms, 0246ms total)
T34E8 066:320 JLINK_WriteReg(R12, 0x00000000)  returns 0x00 (0000ms, 0246ms total)
T34E8 066:320 JLINK_WriteReg(R13, 0x20001000)  returns 0x00 (0000ms, 0246ms total)
T34E8 066:320 JLINK_WriteReg(R14, 0x20000001)  returns 0x00 (0000ms, 0246ms total)
T34E8 066:320 JLINK_WriteReg(R15, 0x20000112)  returns 0x00 (0000ms, 0246ms total)
T34E8 066:320 JLINK_WriteReg(XPSR, 0x01000000)  returns 0x00 (0000ms, 0246ms total)
T34E8 066:320 JLINK_WriteReg(MSP, 0x20001000)  returns 0x00 (0000ms, 0246ms total)
T34E8 066:320 JLINK_WriteReg(PSP, 0x20001000)  returns 0x00 (0000ms, 0246ms total)
T34E8 066:320 JLINK_WriteReg(CFBP, 0x00000000)  returns 0x00 (0000ms, 0246ms total)
T34E8 066:320 JLINK_SetBPEx(Addr = 0x20000000, Type = 0xFFFFFFF2)  returns 0x00000006 (0000ms, 0246ms total)
T34E8 066:320 JLINK_Go() (0003ms, 0249ms total)
T34E8 066:323 JLINK_IsHalted()  returns FALSE (0001ms, 0250ms total)
T34E8 066:329 JLINK_IsHalted() -- CPU_ReadMem(2 bytes @ 0x20000000)  returns TRUE (0005ms, 0254ms total)
T34E8 066:334 JLINK_ReadReg(R15)  returns 0x20000000 (0000ms, 0249ms total)
T34E8 066:334 JLINK_ClrBPEx(BPHandle = 0x00000006)  returns 0x00 (0000ms, 0249ms total)
T34E8 066:334 JLINK_ReadReg(R0)  returns 0x00000000 (0000ms, 0249ms total)
T34E8 066:335 JLINK_WriteMem(0x20000188, 0x0278 Bytes, ...) -- Data:  05 FA 01 F3 15 68 05 EA 03 04 9C 42 34 D1 05 68 ... -- CPU_WriteMem(632 bytes @ 0x20000188)  returns 0x278 (0007ms, 0256ms total)
T34E8 066:342 JLINK_WriteMem(0x20000400, 0x0188 Bytes, ...) -- Data:  07 F0 F0 01 09 09 10 4F 7A 5C 07 68 D7 40 47 60 ... -- CPU_WriteMem(392 bytes @ 0x20000400)  returns 0x188 (0004ms, 0260ms total)
T34E8 066:346 JLINK_WriteReg(R0, 0x08000400)  returns 0x00 (0000ms, 0260ms total)
T34E8 066:346 JLINK_WriteReg(R1, 0x00000400)  returns 0x00 (0000ms, 0260ms total)
T34E8 066:346 JLINK_WriteReg(R2, 0x20000188)  returns 0x00 (0000ms, 0260ms total)
T34E8 066:346 JLINK_WriteReg(R3, 0x00000000)  returns 0x00 (0000ms, 0260ms total)
T34E8 066:346 JLINK_WriteReg(R4, 0x00000000)  returns 0x00 (0000ms, 0260ms total)
T34E8 066:346 JLINK_WriteReg(R5, 0x00000000)  returns 0x00 (0000ms, 0260ms total)
T34E8 066:346 JLINK_WriteReg(R6, 0x00000000)  returns 0x00 (0000ms, 0260ms total)
T34E8 066:346 JLINK_WriteReg(R7, 0x00000000)  returns 0x00 (0000ms, 0260ms total)
T34E8 066:346 JLINK_WriteReg(R8, 0x00000000)  returns 0x00 (0000ms, 0260ms total)
T34E8 066:346 JLINK_WriteReg(R9, 0x20000184)  returns 0x00 (0000ms, 0260ms total)
T34E8 066:346 JLINK_WriteReg(R10, 0x00000000)  returns 0x00 (0000ms, 0260ms total)
T34E8 066:346 JLINK_WriteReg(R11, 0x00000000)  returns 0x00 (0000ms, 0260ms total)
T34E8 066:346 JLINK_WriteReg(R12, 0x00000000)  returns 0x00 (0000ms, 0260ms total)
T34E8 066:346 JLINK_WriteReg(R13, 0x20001000)  returns 0x00 (0000ms, 0260ms total)
T34E8 066:346 JLINK_WriteReg(R14, 0x20000001)  returns 0x00 (0001ms, 0261ms total)
T34E8 066:347 JLINK_WriteReg(R15, 0x20000112)  returns 0x00 (0000ms, 0261ms total)
T34E8 066:347 JLINK_WriteReg(XPSR, 0x01000000)  returns 0x00 (0000ms, 0261ms total)
T34E8 066:347 JLINK_WriteReg(MSP, 0x20001000)  returns 0x00 (0000ms, 0261ms total)
T34E8 066:347 JLINK_WriteReg(PSP, 0x20001000)  returns 0x00 (0000ms, 0261ms total)
T34E8 066:347 JLINK_WriteReg(CFBP, 0x00000000)  returns 0x00 (0000ms, 0261ms total)
T34E8 066:347 JLINK_SetBPEx(Addr = 0x20000000, Type = 0xFFFFFFF2)  returns 0x00000007 (0000ms, 0261ms total)
T34E8 066:347 JLINK_Go() (0002ms, 0263ms total)
T34E8 066:349 JLINK_IsHalted()  returns FALSE (0001ms, 0264ms total)
T34E8 066:360 JLINK_IsHalted() -- CPU_ReadMem(2 bytes @ 0x20000000)  returns TRUE (0005ms, 0268ms total)
T34E8 066:365 JLINK_ReadReg(R15)  returns 0x20000000 (0000ms, 0263ms total)
T34E8 066:365 JLINK_ClrBPEx(BPHandle = 0x00000007)  returns 0x00 (0000ms, 0263ms total)
T34E8 066:365 JLINK_ReadReg(R0)  returns 0x00000000 (0000ms, 0263ms total)
T34E8 066:366 JLINK_WriteMem(0x20000188, 0x0278 Bytes, ...) -- Data:  18 ED 00 E0 00 E4 00 E0 04 48 00 68 20 B1 03 48 ... -- CPU_WriteMem(632 bytes @ 0x20000188)  returns 0x278 (0007ms, 0270ms total)
T34E8 066:373 JLINK_WriteMem(0x20000400, 0x0188 Bytes, ...) -- Data:  06 FA 03 F3 01 2D 02 D1 96 89 33 40 06 E0 02 2D ... -- CPU_WriteMem(392 bytes @ 0x20000400)  returns 0x188 (0004ms, 0274ms total)
T34E8 066:377 JLINK_WriteReg(R0, 0x08000800)  returns 0x00 (0000ms, 0274ms total)
T34E8 066:377 JLINK_WriteReg(R1, 0x00000400)  returns 0x00 (0000ms, 0274ms total)
T34E8 066:377 JLINK_WriteReg(R2, 0x20000188)  returns 0x00 (0000ms, 0274ms total)
T34E8 066:377 JLINK_WriteReg(R3, 0x00000000)  returns 0x00 (0000ms, 0274ms total)
T34E8 066:377 JLINK_WriteReg(R4, 0x00000000)  returns 0x00 (0001ms, 0275ms total)
T34E8 066:378 JLINK_WriteReg(R5, 0x00000000)  returns 0x00 (0000ms, 0275ms total)
T34E8 066:378 JLINK_WriteReg(R6, 0x00000000)  returns 0x00 (0000ms, 0275ms total)
T34E8 066:378 JLINK_WriteReg(R7, 0x00000000)  returns 0x00 (0000ms, 0275ms total)
T34E8 066:378 JLINK_WriteReg(R8, 0x00000000)  returns 0x00 (0000ms, 0275ms total)
T34E8 066:378 JLINK_WriteReg(R9, 0x20000184)  returns 0x00 (0000ms, 0275ms total)
T34E8 066:378 JLINK_WriteReg(R10, 0x00000000)  returns 0x00 (0000ms, 0275ms total)
T34E8 066:378 JLINK_WriteReg(R11, 0x00000000)  returns 0x00 (0000ms, 0275ms total)
T34E8 066:378 JLINK_WriteReg(R12, 0x00000000)  returns 0x00 (0000ms, 0275ms total)
T34E8 066:378 JLINK_WriteReg(R13, 0x20001000)  returns 0x00 (0000ms, 0275ms total)
T34E8 066:378 JLINK_WriteReg(R14, 0x20000001)  returns 0x00 (0000ms, 0275ms total)
T34E8 066:378 JLINK_WriteReg(R15, 0x20000112)  returns 0x00 (0000ms, 0275ms total)
T34E8 066:378 JLINK_WriteReg(XPSR, 0x01000000)  returns 0x00 (0000ms, 0275ms total)
T34E8 066:378 JLINK_WriteReg(MSP, 0x20001000)  returns 0x00 (0000ms, 0275ms total)
T34E8 066:378 JLINK_WriteReg(PSP, 0x20001000)  returns 0x00 (0000ms, 0275ms total)
T34E8 066:378 JLINK_WriteReg(CFBP, 0x00000000)  returns 0x00 (0000ms, 0275ms total)
T34E8 066:378 JLINK_SetBPEx(Addr = 0x20000000, Type = 0xFFFFFFF2)  returns 0x00000008 (0000ms, 0275ms total)
T34E8 066:378 JLINK_Go() (0002ms, 0277ms total)
T34E8 066:380 JLINK_IsHalted()  returns FALSE (0001ms, 0278ms total)
T34E8 066:391 JLINK_IsHalted() -- CPU_ReadMem(2 bytes @ 0x20000000)  returns TRUE (0005ms, 0282ms total)
T34E8 066:396 JLINK_ReadReg(R15)  returns 0x20000000 (0000ms, 0277ms total)
T34E8 066:396 JLINK_ClrBPEx(BPHandle = 0x00000008)  returns 0x00 (0000ms, 0277ms total)
T34E8 066:396 JLINK_ReadReg(R0)  returns 0x00000000 (0000ms, 0277ms total)
T34E8 066:397 JLINK_WriteMem(0x20000188, 0x0278 Bytes, ...) -- Data:  20 20 FF F7 BB FC 01 21 80 20 FF F7 C7 FC 02 20 ... -- CPU_WriteMem(632 bytes @ 0x20000188)  returns 0x278 (0007ms, 0284ms total)
T34E8 066:404 JLINK_WriteMem(0x20000400, 0x0188 Bytes, ...) -- Data:  AD F8 10 00 0C 20 AD F8 0E 00 00 20 AD F8 0C 00 ... -- CPU_WriteMem(392 bytes @ 0x20000400)  returns 0x188 (0004ms, 0288ms total)
T34E8 066:408 JLINK_WriteReg(R0, 0x08000C00)  returns 0x00 (0000ms, 0288ms total)
T34E8 066:408 JLINK_WriteReg(R1, 0x00000380)  returns 0x00 (0000ms, 0288ms total)
T34E8 066:408 JLINK_WriteReg(R2, 0x20000188)  returns 0x00 (0000ms, 0288ms total)
T34E8 066:408 JLINK_WriteReg(R3, 0x00000000)  returns 0x00 (0000ms, 0288ms total)
T34E8 066:408 JLINK_WriteReg(R4, 0x00000000)  returns 0x00 (0000ms, 0288ms total)
T34E8 066:408 JLINK_WriteReg(R5, 0x00000000)  returns 0x00 (0000ms, 0288ms total)
T34E8 066:408 JLINK_WriteReg(R6, 0x00000000)  returns 0x00 (0000ms, 0288ms total)
T34E8 066:408 JLINK_WriteReg(R7, 0x00000000)  returns 0x00 (0000ms, 0288ms total)
T34E8 066:408 JLINK_WriteReg(R8, 0x00000000)  returns 0x00 (0000ms, 0288ms total)
T34E8 066:408 JLINK_WriteReg(R9, 0x20000184)  returns 0x00 (0000ms, 0288ms total)
T34E8 066:408 JLINK_WriteReg(R10, 0x00000000)  returns 0x00 (0000ms, 0288ms total)
T34E8 066:408 JLINK_WriteReg(R11, 0x00000000)  returns 0x00 (0000ms, 0288ms total)
T34E8 066:408 JLINK_WriteReg(R12, 0x00000000)  returns 0x00 (0000ms, 0288ms total)
T34E8 066:408 JLINK_WriteReg(R13, 0x20001000)  returns 0x00 (0000ms, 0288ms total)
T34E8 066:408 JLINK_WriteReg(R14, 0x20000001)  returns 0x00 (0000ms, 0288ms total)
T34E8 066:408 JLINK_WriteReg(R15, 0x20000112)  returns 0x00 (0000ms, 0288ms total)
T34E8 066:408 JLINK_WriteReg(XPSR, 0x01000000)  returns 0x00 (0000ms, 0288ms total)
T34E8 066:408 JLINK_WriteReg(MSP, 0x20001000)  returns 0x00 (0000ms, 0288ms total)
T34E8 066:408 JLINK_WriteReg(PSP, 0x20001000)  returns 0x00 (0000ms, 0288ms total)
T34E8 066:408 JLINK_WriteReg(CFBP, 0x00000000)  returns 0x00 (0000ms, 0288ms total)
T34E8 066:408 JLINK_SetBPEx(Addr = 0x20000000, Type = 0xFFFFFFF2)  returns 0x00000009 (0000ms, 0288ms total)
T34E8 066:408 JLINK_Go() (0003ms, 0291ms total)
T34E8 066:411 JLINK_IsHalted()  returns FALSE (0000ms, 0291ms total)
T34E8 066:421 JLINK_IsHalted() -- CPU_ReadMem(2 bytes @ 0x20000000)  returns TRUE (0005ms, 0296ms total)
T34E8 066:426 JLINK_ReadReg(R15)  returns 0x20000000 (0000ms, 0291ms total)
T34E8 066:427 JLINK_ClrBPEx(BPHandle = 0x00000009)  returns 0x00 (0000ms, 0292ms total)
T34E8 066:427 JLINK_ReadReg(R0)  returns 0x00000000 (0000ms, 0292ms total)
T34E8 066:427 JLINK_WriteReg(R0, 0x00000002)  returns 0x00 (0000ms, 0292ms total)
T34E8 066:427 JLINK_WriteReg(R1, 0x00000380)  returns 0x00 (0000ms, 0292ms total)
T34E8 066:427 JLINK_WriteReg(R2, 0x20000188)  returns 0x00 (0000ms, 0292ms total)
T34E8 066:427 JLINK_WriteReg(R3, 0x00000000)  returns 0x00 (0000ms, 0292ms total)
T34E8 066:427 JLINK_WriteReg(R4, 0x00000000)  returns 0x00 (0000ms, 0292ms total)
T34E8 066:427 JLINK_WriteReg(R5, 0x00000000)  returns 0x00 (0000ms, 0292ms total)
T34E8 066:427 JLINK_WriteReg(R6, 0x00000000)  returns 0x00 (0000ms, 0292ms total)
T34E8 066:427 JLINK_WriteReg(R7, 0x00000000)  returns 0x00 (0000ms, 0292ms total)
T34E8 066:427 JLINK_WriteReg(R8, 0x00000000)  returns 0x00 (0000ms, 0292ms total)
T34E8 066:427 JLINK_WriteReg(R9, 0x20000184)  returns 0x00 (0000ms, 0292ms total)
T34E8 066:427 JLINK_WriteReg(R10, 0x00000000)  returns 0x00 (0000ms, 0292ms total)
T34E8 066:427 JLINK_WriteReg(R11, 0x00000000)  returns 0x00 (0000ms, 0292ms total)
T34E8 066:427 JLINK_WriteReg(R12, 0x00000000)  returns 0x00 (0000ms, 0292ms total)
T34E8 066:427 JLINK_WriteReg(R13, 0x20001000)  returns 0x00 (0000ms, 0292ms total)
T34E8 066:427 JLINK_WriteReg(R14, 0x20000001)  returns 0x00 (0000ms, 0292ms total)
T34E8 066:427 JLINK_WriteReg(R15, 0x2000008C)  returns 0x00 (0000ms, 0292ms total)
T34E8 066:427 JLINK_WriteReg(XPSR, 0x01000000)  returns 0x00 (0000ms, 0292ms total)
T34E8 066:427 JLINK_WriteReg(MSP, 0x20001000)  returns 0x00 (0000ms, 0292ms total)
T34E8 066:427 JLINK_WriteReg(PSP, 0x20001000)  returns 0x00 (0000ms, 0292ms total)
T34E8 066:427 JLINK_WriteReg(CFBP, 0x00000000)  returns 0x00 (0000ms, 0292ms total)
T34E8 066:427 JLINK_SetBPEx(Addr = 0x20000000, Type = 0xFFFFFFF2)  returns 0x0000000A (0000ms, 0292ms total)
T34E8 066:427 JLINK_Go() (0002ms, 0294ms total)
T34E8 066:429 JLINK_IsHalted() -- CPU_ReadMem(2 bytes @ 0x20000000)  returns TRUE (0006ms, 0300ms total)
T34E8 066:435 JLINK_ReadReg(R15)  returns 0x20000000 (0000ms, 0294ms total)
T34E8 066:435 JLINK_ClrBPEx(BPHandle = 0x0000000A)  returns 0x00 (0000ms, 0294ms total)
T34E8 066:435 JLINK_ReadReg(R0)  returns 0x00000000 (0000ms, 0294ms total)
T34E8 066:500 JLINK_WriteMem(0x20000000, 0x0188 Bytes, ...) -- Data:  00 BE 0A E0 0D 78 2D 06 68 40 08 24 40 00 00 D3 ... -- CPU_WriteMem(392 bytes @ 0x20000000)  returns 0x188 (0006ms, 0300ms total)
T34E8 066:506 JLINK_WriteReg(R0, 0x08000000)  returns 0x00 (0000ms, 0300ms total)
T34E8 066:506 JLINK_WriteReg(R1, 0x00B71B00)  returns 0x00 (0000ms, 0300ms total)
T34E8 066:506 JLINK_WriteReg(R2, 0x00000003)  returns 0x00 (0000ms, 0300ms total)
T34E8 066:506 JLINK_WriteReg(R3, 0x00000000)  returns 0x00 (0000ms, 0300ms total)
T34E8 066:506 JLINK_WriteReg(R4, 0x00000000)  returns 0x00 (0000ms, 0300ms total)
T34E8 066:506 JLINK_WriteReg(R5, 0x00000000)  returns 0x00 (0000ms, 0300ms total)
T34E8 066:506 JLINK_WriteReg(R6, 0x00000000)  returns 0x00 (0000ms, 0300ms total)
T34E8 066:506 JLINK_WriteReg(R7, 0x00000000)  returns 0x00 (0000ms, 0300ms total)
T34E8 066:506 JLINK_WriteReg(R8, 0x00000000)  returns 0x00 (0000ms, 0300ms total)
T34E8 066:506 JLINK_WriteReg(R9, 0x20000184)  returns 0x00 (0000ms, 0300ms total)
T34E8 066:506 JLINK_WriteReg(R10, 0x00000000)  returns 0x00 (0000ms, 0300ms total)
T34E8 066:506 JLINK_WriteReg(R11, 0x00000000)  returns 0x00 (0000ms, 0300ms total)
T34E8 066:506 JLINK_WriteReg(R12, 0x00000000)  returns 0x00 (0000ms, 0300ms total)
T34E8 066:506 JLINK_WriteReg(R13, 0x20001000)  returns 0x00 (0000ms, 0300ms total)
T34E8 066:506 JLINK_WriteReg(R14, 0x20000001)  returns 0x00 (0000ms, 0300ms total)
T34E8 066:506 JLINK_WriteReg(R15, 0x2000005E)  returns 0x00 (0000ms, 0300ms total)
T34E8 066:506 JLINK_WriteReg(XPSR, 0x01000000)  returns 0x00 (0000ms, 0300ms total)
T34E8 066:506 JLINK_WriteReg(MSP, 0x20001000)  returns 0x00 (0000ms, 0300ms total)
T34E8 066:506 JLINK_WriteReg(PSP, 0x20001000)  returns 0x00 (0000ms, 0300ms total)
T34E8 066:506 JLINK_WriteReg(CFBP, 0x00000000)  returns 0x00 (0000ms, 0300ms total)
T34E8 066:506 JLINK_SetBPEx(Addr = 0x20000000, Type = 0xFFFFFFF2) -- CPU_ReadMem(4 bytes @ 0x20000000) -- CPU_WriteMem(4 bytes @ 0x20000000) -- CPU_ReadMem(4 bytes @ 0x20000000) -- CPU_WriteMem(4 bytes @ 0x20000000) -- CPU_ReadMem(2 bytes @ 0x20000000)  returns 0x0000000B (0003ms, 0303ms total)
T34E8 066:509 JLINK_Go() -- CPU_WriteMem(2 bytes @ 0x20000000) (0003ms, 0306ms total)
T34E8 066:512 JLINK_IsHalted() -- CPU_ReadMem(2 bytes @ 0x20000000)  returns TRUE (0005ms, 0311ms total)
T34E8 066:517 JLINK_ReadReg(R15)  returns 0x20000000 (0000ms, 0306ms total)
T34E8 066:517 JLINK_ClrBPEx(BPHandle = 0x0000000B)  returns 0x00 (0000ms, 0306ms total)
T34E8 066:517 JLINK_ReadReg(R0)  returns 0x00000000 (0000ms, 0306ms total)
T34E8 066:517 JLINK_WriteReg(R0, 0xFFFFFFFF)  returns 0x00 (0000ms, 0306ms total)
T34E8 066:517 JLINK_WriteReg(R1, 0x08000000)  returns 0x00 (0000ms, 0306ms total)
T34E8 066:517 JLINK_WriteReg(R2, 0x00000F80)  returns 0x00 (0000ms, 0306ms total)
T34E8 066:517 JLINK_WriteReg(R3, 0x04C11DB7)  returns 0x00 (0000ms, 0306ms total)
T34E8 066:517 JLINK_WriteReg(R4, 0x00000000)  returns 0x00 (0000ms, 0306ms total)
T34E8 066:517 JLINK_WriteReg(R5, 0x00000000)  returns 0x00 (0000ms, 0306ms total)
T34E8 066:517 JLINK_WriteReg(R6, 0x00000000)  returns 0x00 (0000ms, 0306ms total)
T34E8 066:517 JLINK_WriteReg(R7, 0x00000000)  returns 0x00 (0000ms, 0306ms total)
T34E8 066:517 JLINK_WriteReg(R8, 0x00000000)  returns 0x00 (0000ms, 0306ms total)
T34E8 066:517 JLINK_WriteReg(R9, 0x20000184)  returns 0x00 (0000ms, 0306ms total)
T34E8 066:517 JLINK_WriteReg(R10, 0x00000000)  returns 0x00 (0000ms, 0306ms total)
T34E8 066:517 JLINK_WriteReg(R11, 0x00000000)  returns 0x00 (0000ms, 0306ms total)
T34E8 066:517 JLINK_WriteReg(R12, 0x00000000)  returns 0x00 (0000ms, 0306ms total)
T34E8 066:517 JLINK_WriteReg(R13, 0x20001000)  returns 0x00 (0000ms, 0306ms total)
T34E8 066:517 JLINK_WriteReg(R14, 0x20000001)  returns 0x00 (0000ms, 0306ms total)
T34E8 066:517 JLINK_WriteReg(R15, 0x20000002)  returns 0x00 (0000ms, 0306ms total)
T34E8 066:517 JLINK_WriteReg(XPSR, 0x01000000)  returns 0x00 (0000ms, 0306ms total)
T34E8 066:517 JLINK_WriteReg(MSP, 0x20001000)  returns 0x00 (0000ms, 0306ms total)
T34E8 066:517 JLINK_WriteReg(PSP, 0x20001000)  returns 0x00 (0000ms, 0306ms total)
T34E8 066:517 JLINK_WriteReg(CFBP, 0x00000000)  returns 0x00 (0000ms, 0306ms total)
T34E8 066:517 JLINK_SetBPEx(Addr = 0x20000000, Type = 0xFFFFFFF2)  returns 0x0000000C (0000ms, 0306ms total)
T34E8 066:517 JLINK_Go() (0003ms, 0309ms total)
T34E8 066:520 JLINK_IsHalted()  returns FALSE (0000ms, 0309ms total)
T34E8 066:530 JLINK_IsHalted()  returns FALSE (0001ms, 0310ms total)
T34E8 066:533 JLINK_IsHalted()  returns FALSE (0000ms, 0309ms total)
T34E8 066:535 JLINK_IsHalted()  returns FALSE (0000ms, 0309ms total)
T34E8 066:537 JLINK_IsHalted()  returns FALSE (0000ms, 0309ms total)
T34E8 066:539 JLINK_IsHalted()  returns FALSE (0000ms, 0309ms total)
T34E8 066:543 JLINK_IsHalted()  returns FALSE (0000ms, 0309ms total)
T34E8 066:545 JLINK_IsHalted() -- CPU_ReadMem(2 bytes @ 0x20000000)  returns TRUE (0005ms, 0314ms total)
T34E8 066:550 JLINK_ReadReg(R15)  returns 0x20000000 (0000ms, 0309ms total)
T34E8 066:550 JLINK_ClrBPEx(BPHandle = 0x0000000C)  returns 0x00 (0000ms, 0309ms total)
T34E8 066:550 JLINK_ReadReg(R0)  returns 0x2F4AB796 (0000ms, 0309ms total)
T34E8 066:551 JLINK_WriteReg(R0, 0x00000003)  returns 0x00 (0000ms, 0309ms total)
T34E8 066:551 JLINK_WriteReg(R1, 0x08000000)  returns 0x00 (0000ms, 0309ms total)
T34E8 066:551 JLINK_WriteReg(R2, 0x00000F80)  returns 0x00 (0000ms, 0309ms total)
T34E8 066:551 JLINK_WriteReg(R3, 0x04C11DB7)  returns 0x00 (0000ms, 0309ms total)
T34E8 066:551 JLINK_WriteReg(R4, 0x00000000)  returns 0x00 (0000ms, 0309ms total)
T34E8 066:551 JLINK_WriteReg(R5, 0x00000000)  returns 0x00 (0000ms, 0309ms total)
T34E8 066:551 JLINK_WriteReg(R6, 0x00000000)  returns 0x00 (0000ms, 0309ms total)
T34E8 066:551 JLINK_WriteReg(R7, 0x00000000)  returns 0x00 (0000ms, 0309ms total)
T34E8 066:551 JLINK_WriteReg(R8, 0x00000000)  returns 0x00 (0000ms, 0309ms total)
T34E8 066:551 JLINK_WriteReg(R9, 0x20000184)  returns 0x00 (0000ms, 0309ms total)
T34E8 066:551 JLINK_WriteReg(R10, 0x00000000)  returns 0x00 (0000ms, 0309ms total)
T34E8 066:551 JLINK_WriteReg(R11, 0x00000000)  returns 0x00 (0000ms, 0309ms total)
T34E8 066:551 JLINK_WriteReg(R12, 0x00000000)  returns 0x00 (0000ms, 0309ms total)
T34E8 066:551 JLINK_WriteReg(R13, 0x20001000)  returns 0x00 (0000ms, 0309ms total)
T34E8 066:551 JLINK_WriteReg(R14, 0x20000001)  returns 0x00 (0000ms, 0309ms total)
T34E8 066:551 JLINK_WriteReg(R15, 0x2000008C)  returns 0x00 (0000ms, 0309ms total)
T34E8 066:551 JLINK_WriteReg(XPSR, 0x01000000)  returns 0x00 (0000ms, 0309ms total)
T34E8 066:551 JLINK_WriteReg(MSP, 0x20001000)  returns 0x00 (0000ms, 0309ms total)
T34E8 066:551 JLINK_WriteReg(PSP, 0x20001000)  returns 0x00 (0000ms, 0309ms total)
T34E8 066:551 JLINK_WriteReg(CFBP, 0x00000000)  returns 0x00 (0000ms, 0309ms total)
T34E8 066:551 JLINK_SetBPEx(Addr = 0x20000000, Type = 0xFFFFFFF2)  returns 0x0000000D (0000ms, 0309ms total)
T34E8 066:551 JLINK_Go() (0002ms, 0311ms total)
T34E8 066:553 JLINK_IsHalted() -- CPU_ReadMem(2 bytes @ 0x20000000)  returns TRUE (0006ms, 0317ms total)
T34E8 066:559 JLINK_ReadReg(R15)  returns 0x20000000 (0000ms, 0311ms total)
T34E8 066:559 JLINK_ClrBPEx(BPHandle = 0x0000000D)  returns 0x00 (0000ms, 0311ms total)
T34E8 066:559 JLINK_ReadReg(R0)  returns 0x00000000 (0000ms, 0311ms total)
T34E8 066:618 JLINK_WriteMemEx(0x20000000, 0x0002 Bytes, ..., AccessWidth = 33554432) -- Data:  FE E7Mis-aligned memory write: Address: 0x20000000, NumBytes: 2, Alignment: 2 (Halfword-aligned)
  ***** Mis-aligned memory write: Address: 0x20000000, NumBytes: 2, Alignment: 2 (Halfword-aligned) -- CPU_WriteMem(2 bytes @ 0x20000000)  returns 0x02 (0006ms, 0317ms total)
T34E8 066:630 JLINK_Close() >0x42 TIF> >0x28 TIF> >0x0D TIF> >0x21 TIF> (0011ms, 0328ms total)
T34E8 066:641 JLINK_Close() (0000ms, 0328ms total)
T34E8 105:990 JLINK_IsOpen()  returns 0x00 (0000ms, 0328ms total)
T34E8 105:990 JLINK_EMU_GetList(InterfaceMask = 0x00000001, MaxInfos = 0x00000010) [0]: USB, S/N: -1  returns 0x01 (0000ms, 0328ms total)
T34E8 105:990 JLINK_IsOpen()  returns 0x00 (0000ms, 0328ms total)
T34E8 105:990 JLINK_EMU_SelectByUSBSN(SerialNo = -1)  returns 0x00 (0001ms, 0329ms total)
T34E8 105:991 JLINK_EnableLog(...) (0000ms, 0329ms total)
T34E8 105:991 JLINK_SetWarnOutHandler(...) (0000ms, 0329ms total)
T34E8 105:991 JLINK_OpenEx(...)
Firmware: J-Link OB-STM32F072-CortexM compiled Jan  7 2019 14:09:37
Hardware: V1.00
Feature(s): GDB, RDI, FlashBP, FlashDL, JFlash, RDDI
                JLINK_AddMirrorAreaEx(Addr = 0x00000000, Size = 0x00000000) (0000ms, 0000ms total)
              Device "UNSPECIFIED" selected (0 KB flash, 0 KB RAM).  returns O.K. (0028ms, 0357ms total)
T34E8 106:019 JLINK_GetEmuCaps()  returns 0xB8EA5A33 (0000ms, 0357ms total)
T34E8 106:020 JLINK_TIF_GetAvailable(...) (0000ms, 0357ms total)
T34E8 106:020 JLINK_SetErrorOutHandler(...) (0000ms, 0357ms total)
T34E8 106:020 JLINK_ExecCommand("ProjectFile = "E:\Leoric\Embedded system\STM32F4\USER\Class1\JLinkSettings.ini"", ...)
                JLINK_AddMirrorAreaEx(Addr = 0x00000000, Size = 0x00000000) (0000ms, 0000ms total)
              Device "UNSPECIFIED" selected (0 KB flash, 0 KB RAM).  returns 0x00 (0004ms, 0361ms total)
T34E8 106:034 JLINK_ExecCommand("Device = STM32F407ZETx", ...)
                JLINK_AddMirrorAreaEx(Addr = 0x00000000, Size = 0x00000000) (0000ms, 0000ms total)
              Device "UNSPECIFIED" selected (0 KB flash, 0 KB RAM).  returns 0x00 (0009ms, 0370ms total)
T34E8 106:043 JLINK_ExecCommand("DisableConnectionTimeout", ...)  returns 0x00 (0000ms, 0370ms total)
T34E8 106:043 JLINK_GetHardwareVersion()  returns 0x2710 (0000ms, 0370ms total)
T34E8 106:043 JLINK_GetDLLVersion()  returns 46001 (0000ms, 0370ms total)
T34E8 106:043 JLINK_GetFirmwareString(...) (0000ms, 0370ms total)
T34E8 106:078 JLINK_GetDLLVersion()  returns 46001 (0000ms, 0370ms total)
T34E8 106:079 JLINK_GetCompileDateTime() (0000ms, 0370ms total)
T34E8 106:105 JLINK_GetFirmwareString(...) (0000ms, 0370ms total)
T34E8 106:117 JLINK_GetHardwareVersion()  returns 0x2710 (0001ms, 0371ms total)
T34E8 106:142 JLINK_TIF_Select(JLINKARM_TIF_SWD)  returns 0x00 (0000ms, 0371ms total)
T34E8 106:142 JLINK_SetSpeed(20000) (0000ms, 0371ms total)
T34E8 106:142 JLINK_GetId() >0x108 TIF>Found SWD-DP with ID 0x2BA01477 >0x0D TIF> >0x21 TIF> >0x0D TIF> >0x28 TIF> >0x0D TIF> >0x28 TIF> >0x0D TIF> >0x21 TIF> >0x0D TIF> >0x21 TIF> >0x0D TIF> >0x28 TIF> >0x0D TIF> >0x21 TIF> >0x0D TIF> >0x21 TIF> >0x0D TIF> >0x21 TIF> >0x0D TIF> >0x21 TIF> >0x0D TIF> >0x21 TIF> >0x0D TIF> >0x28 TIF> >0x0D TIF> >0x28 TIF> >0x0D TIF> >0x21 TIF> >0x0D TIF> >0x21 TIF> >0x0D TIF> >0x28 TIF> >0x0D TIF> >0x21 TIF> >0x0D TIF> >0x21 TIF> >0x0D TIF> >0x28 TIF> >0x0D TIF>
